
T23FC 001:458 SEGGER J-Link V5.02f Log File (0001ms, 0267ms total)
T23FC 001:458 DLL Compiled: Oct  2 2015 20:51:34 (0001ms, 0267ms total)
T23FC 001:458 Logging started @ 2019-08-19 22:03 (0001ms, 0267ms total)
T23FC 001:459 JLINK_SetWarnOutHandler(...) (0000ms, 0267ms total)
T23FC 001:459 JLINK_OpenEx(...)
Firmware: J-Link ARM-OB STM32 compiled Aug 22 2012 19:52:04
Hardware: V7.00
S/N: 20090928
Feature(s): RDI,FlashDL,FlashBP,JFlash,GDB  returns O.K. (0584ms, 0851ms total)
T23FC 002:043 JLINK_SetErrorOutHandler(...) (0000ms, 0851ms total)
T23FC 002:044 JLINK_ExecCommand("ProjectFile = "F:\05产品配套资料\MiaowLabs两轮自平衡小车小霸王Lite光盘\02、程序源代码\Mwbalanced-stm32-小霸王Lite-firmware-互补滤波-none V3.33\JLinkSettings.ini"", ...)  returns 0x00 (0001ms, 0853ms total)
T23FC 002:053 JLINK_ExecCommand("Device = STM32F103C8", ...)Device "STM32F103C8" selected.  returns 0x00 (0009ms, 0862ms total)
T23FC 002:062 JLINK_ExecCommand("DisableConnectionTimeout", ...)  returns 0x01 (0000ms, 0862ms total)
T23FC 002:062 JLINK_GetHardwareVersion()  returns 0x11170 (0000ms, 0862ms total)
T23FC 002:062 JLINK_GetDLLVersion()  returns 50206 (0000ms, 0862ms total)
T23FC 002:062 JLINK_GetFirmwareString(...) (0000ms, 0862ms total)
T23FC 002:072 JLINK_GetDLLVersion()  returns 50206 (0000ms, 0862ms total)
T23FC 002:072 JLINK_GetCompileDateTime() (0000ms, 0862ms total)
T23FC 002:074 JLINK_GetFirmwareString(...) (0000ms, 0862ms total)
T23FC 002:076 JLINK_GetHardwareVersion()  returns 0x11170 (0000ms, 0862ms total)
T23FC 002:086 JLINK_TIF_Select(JLINKARM_TIF_SWD)  returns 0x00 (0001ms, 0863ms total)
T23FC 002:087 JLINK_SetSpeed(5000) (0000ms, 0863ms total)
T23FC 002:087 JLINK_GetId() >0x108 TIF>Found SWD-DP with ID 0x1BA01477 >0x0D TIF> >0x28 TIF> >0x0D TIF> >0x28 TIF> >0x0D TIF> >0x21 TIF> >0x0D TIF> >0x28 TIF> >0x0D TIF> >0x28 TIF> >0x0D TIF> >0x28 TIF> >0x0D TIF> >0x21 TIF> >0x0D TIF> >0x21 TIF> >0x0D TIF> >0x28 TIF> >0x0D TIF> >0x21 TIF> >0x0D TIF> >0x21 TIF> >0x0D TIF> >0x28 TIF> >0x0D TIF> >0x28 TIF> >0x0D TIF> >0x28 TIF> >0x0D TIF> >0x21 TIF> >0x0D TIF> >0x21 TIF> >0x0D TIF> >0x28 TIF> >0x0D TIF> >0x21 TIF> >0x0D TIF> >0x21 TIF> >0x108 TIF>
Found SWD-DP with ID 0x1BA01477 >0x0D TIF> >0x21 TIF> >0x0D TIF> >0x28 TIF> >0x0D TIF> >0x28 TIF> >0x0D TIF> >0x21 TIF> >0x0D TIF> >0x28 TIF> >0x0D TIF> >0x21 TIF> >0x0D TIF> >0x21 TIF> >0x0D TIF> >0x21 TIF> >0x0D TIF> >0x21 TIF> >0x0D TIF> >0x28 TIF> >0x0D TIF> >0x28 TIF> >0x0D TIF> >0x21 TIF> >0x0D TIF> >0x28 TIF> >0x0D TIF> >0x28 TIF> >0x0D TIF> >0x28 TIF> >0x0D TIF> >0x21 TIF> >0x0D TIF> >0x21 TIF> >0x0D TIF> >0x28 TIF> >0x0D TIF> >0x21 TIF> >0x0D TIF> >0x21 TIF>Found Cortex-M3 r1p1, Little endian.
 -- CPU_ReadMem(4 bytes @ 0xE000EDF0) -- CPU_WriteMem(4 bytes @ 0xE000EDF0) -- CPU_ReadMem(4 bytes @ 0xE0002000)FPUnit: 6 code (BP) slots and 2 literal slots -- CPU_ReadMem(4 bytes @ 0xE000EDFC) -- CPU_WriteMem(4 bytes @ 0xE000EDFC) -- CPU_ReadMem(4 bytes @ 0xE0001000) -- CPU_WriteMem(4 bytes @ 0xE0001000) -- CPU_ReadMem(4 bytes @ 0xE000ED88) -- CPU_WriteMem(4 bytes @ 0xE000ED88) -- CPU_ReadMem(4 bytes @ 0xE000ED88) -- CPU_WriteMem(4 bytes @ 0xE000ED88)CoreSight components:ROMTbl 0 @ E00FF000
 -- CPU_ReadMem(16 bytes @ 0xE00FF000) -- CPU_ReadMem(16 bytes @ 0xE000EFF0) -- CPU_ReadMem(16 bytes @ 0xE000EFE0)ROMTbl 0 [0]: FFF0F000, CID: B105E00D, PID: 001BB000 SCS -- CPU_ReadMem(16 bytes @ 0xE0001FF0) -- CPU_ReadMem(16 bytes @ 0xE0001FE0)ROMTbl 0 [1]: FFF02000, CID: B105E00D, PID: 001BB002 DWT -- CPU_ReadMem(16 bytes @ 0xE0002FF0) -- CPU_ReadMem(16 bytes @ 0xE0002FE0)ROMTbl 0 [2]: FFF03000, CID: B105E00D, PID: 000BB003 FPB -- CPU_ReadMem(16 bytes @ 0xE0000FF0)
 -- CPU_ReadMem(16 bytes @ 0xE0000FE0)ROMTbl 0 [3]: FFF01000, CID: B105E00D, PID: 001BB001 ITM -- CPU_ReadMem(16 bytes @ 0xE00FF010) -- CPU_ReadMem(16 bytes @ 0xE0040FF0) -- CPU_ReadMem(16 bytes @ 0xE0040FE0)ROMTbl 0 [4]: FFF41000, CID: B105900D, PID: 001BB923 TPIU-Lite >0x0D TIF> >0x21 TIF>  returns 0x1BA01477 (0085ms, 0948ms total)
T23FC 002:172 JLINK_GetDLLVersion()  returns 50206 (0000ms, 0948ms total)
T23FC 002:172 JLINK_CORE_GetFound()  returns 0x30000FF (0000ms, 0948ms total)
T23FC 002:172 JLINK_GetDebugInfo(0x100) -- Value=0xE00FF003  returns 0x00 (0000ms, 0948ms total)
T23FC 002:174 JLINK_GetDebugInfo(0x100) -- Value=0xE00FF003  returns 0x00 (0000ms, 0948ms total)
T23FC 002:174 JLINK_GetDebugInfo(0x101) -- Value=0x00000000  returns 0x00 (0000ms, 0948ms total)
T23FC 002:174 JLINK_ReadMem (0xE0041FF0, 0x0010 Bytes, ...) -- CPU is running -- CPU_ReadMem(16 bytes @ 0xE0041FF0) - Data: 00 00 00 00 00 00 00 00 00 00 00 00 00 00 00 00  returns 0x00 (0001ms, 0949ms total)
T23FC 002:175 JLINK_GetDebugInfo(0x102) -- Value=0x00000000  returns 0x00 (0000ms, 0949ms total)
T23FC 002:175 JLINK_GetDebugInfo(0x103) -- Value=0xE0040000  returns 0x00 (0000ms, 0949ms total)
T23FC 002:175 JLINK_GetDebugInfo(0x104) -- Value=0xE0000000  returns 0x00 (0000ms, 0949ms total)
T23FC 002:175 JLINK_GetDebugInfo(0x105) -- Value=0xE0001000  returns 0x00 (0000ms, 0949ms total)
T23FC 002:175 JLINK_GetDebugInfo(0x106) -- Value=0xE0002000  returns 0x00 (0000ms, 0949ms total)
T23FC 002:175 JLINK_GetDebugInfo(0x107) -- Value=0xE000E000  returns 0x00 (0000ms, 0949ms total)
T23FC 002:175 JLINK_GetDebugInfo(0x10C) -- Value=0xE000EDF0  returns 0x00 (0000ms, 0949ms total)
T23FC 002:175 JLINK_ReadMemU32(0xE000ED00, 0x0001 Items, ...) -- CPU is running -- CPU_ReadMem(4 bytes @ 0xE000ED00) - Data: 31 C2 1F 41  returns 0x01 (0001ms, 0950ms total)
T23FC 002:176 JLINK_SetResetType(JLINKARM_RESET_TYPE_NORMAL)  returns JLINKARM_RESET_TYPE_NORMAL (0000ms, 0950ms total)
T23FC 002:176 JLINK_Reset() -- CPU is running -- CPU_WriteMem(4 bytes @ 0xE000EDF0) -- CPU is running -- CPU_WriteMem(4 bytes @ 0xE000EDFC) >0x35 TIF> -- CPU is running -- CPU_WriteMem(4 bytes @ 0xE000ED0C) -- CPU is running -- CPU_ReadMem(4 bytes @ 0xE000EDF0) -- CPU is running -- CPU_ReadMem(4 bytes @ 0xE000EDF0) -- CPU is running -- CPU_WriteMem(4 bytes @ 0xE000EDF0) -- CPU is running -- CPU_WriteMem(4 bytes @ 0xE000EDFC) -- CPU is running -- CPU_ReadMem(4 bytes @ 0xE000EDF0)
 -- CPU_WriteMem(4 bytes @ 0xE0002000) -- CPU_ReadMem(4 bytes @ 0xE000EDFC) -- CPU_ReadMem(4 bytes @ 0xE0001000) (0020ms, 0970ms total)
T23FC 002:196 JLINK_Halt()  returns 0x00 (0000ms, 0970ms total)
T23FC 002:196 JLINK_IsHalted()  returns TRUE (0000ms, 0970ms total)
T23FC 002:196 JLINK_ReadMemU32(0xE000EDF0, 0x0001 Items, ...) -- CPU_ReadMem(4 bytes @ 0xE000EDF0) - Data: 03 00 03 00  returns 0x01 (0001ms, 0971ms total)
T23FC 002:197 JLINK_WriteU32(0xE000EDF0, 0xA05F0003) -- CPU_WriteMem(4 bytes @ 0xE000EDF0)  returns 0x00 (0000ms, 0971ms total)
T23FC 002:197 JLINK_WriteU32(0xE000EDFC, 0x01000000) -- CPU_WriteMem(4 bytes @ 0xE000EDFC)  returns 0x00 (0001ms, 0972ms total)
T23FC 002:206 JLINK_GetHWStatus(...)  returns 0x00 (0000ms, 0972ms total)
T23FC 002:214 JLINK_GetNumBPUnits(Type = 0xFFFFFF00)  returns 0x06 (0000ms, 0972ms total)
T23FC 002:214 JLINK_GetNumBPUnits(Type = 0xF0)  returns 0x2000 (0000ms, 0972ms total)
T23FC 002:214 JLINK_GetNumWPUnits()  returns 0x04 (0000ms, 0972ms total)
T23FC 002:220 JLINK_GetSpeed()  returns 0xFA0 (0000ms, 0972ms total)
T23FC 002:223 JLINK_ReadMemU32(0xE000E004, 0x0001 Items, ...) -- CPU_ReadMem(4 bytes @ 0xE000E004) - Data: 01 00 00 00  returns 0x01 (0001ms, 0973ms total)
T23FC 002:224 JLINK_ReadMemU32(0xE000E004, 0x0001 Items, ...) -- CPU_ReadMem(4 bytes @ 0xE000E004) - Data: 01 00 00 00  returns 0x01 (0001ms, 0974ms total)
T23FC 002:225 JLINK_WriteMem(0xE0001000, 0x001C Bytes, ...) - Data: 01 00 00 00 00 00 00 00 00 00 00 00 00 00 00 00 ... -- CPU_WriteMem(28 bytes @ 0xE0001000)  returns 0x1C (0001ms, 0975ms total)
T23FC 002:226 JLINK_ReadMem (0xE0001000, 0x001C Bytes, ...) -- CPU_ReadMem(28 bytes @ 0xE0001000) - Data: 01 00 00 40 00 00 00 00 00 00 00 00 00 00 00 00 ...  returns 0x00 (0001ms, 0976ms total)
T23FC 002:227 JLINK_Halt()  returns 0x00 (0000ms, 0976ms total)
T23FC 002:227 JLINK_IsHalted()  returns TRUE (0000ms, 0976ms total)
T23FC 002:230 JLINK_WriteMem(0x20000000, 0x0164 Bytes, ...) - Data: 00 BE 0A E0 0D 78 2D 06 68 40 08 24 40 00 00 D3 ... -- CPU_WriteMem(356 bytes @ 0x20000000)  returns 0x164 (0006ms, 0982ms total)
T23FC 002:236 JLINK_WriteReg(R0, 0x08000000)  returns 0x00 (0000ms, 0982ms total)
T23FC 002:236 JLINK_WriteReg(R1, 0x007A1200)  returns 0x00 (0000ms, 0982ms total)
T23FC 002:236 JLINK_WriteReg(R2, 0x00000001)  returns 0x00 (0000ms, 0982ms total)
T23FC 002:236 JLINK_WriteReg(R3, 0x00000000)  returns 0x00 (0000ms, 0982ms total)
T23FC 002:236 JLINK_WriteReg(R4, 0x00000000)  returns 0x00 (0000ms, 0982ms total)
T23FC 002:236 JLINK_WriteReg(R5, 0x00000000)  returns 0x00 (0000ms, 0982ms total)
T23FC 002:236 JLINK_WriteReg(R6, 0x00000000)  returns 0x00 (0000ms, 0982ms total)
T23FC 002:236 JLINK_WriteReg(R7, 0x00000000)  returns 0x00 (0000ms, 0982ms total)
T23FC 002:236 JLINK_WriteReg(R8, 0x00000000)  returns 0x00 (0000ms, 0982ms total)
T23FC 002:236 JLINK_WriteReg(R9, 0x20000160)  returns 0x00 (0000ms, 0982ms total)
T23FC 002:236 JLINK_WriteReg(R10, 0x00000000)  returns 0x00 (0000ms, 0982ms total)
T23FC 002:236 JLINK_WriteReg(R11, 0x00000000)  returns 0x00 (0000ms, 0982ms total)
T23FC 002:236 JLINK_WriteReg(R12, 0x00000000)  returns 0x00 (0000ms, 0982ms total)
T23FC 002:236 JLINK_WriteReg(R13 (SP), 0x20000800)  returns 0x00 (0000ms, 0982ms total)
T23FC 002:236 JLINK_WriteReg(R14, 0x20000001)  returns 0x00 (0000ms, 0982ms total)
T23FC 002:236 JLINK_WriteReg(R15 (PC), 0x20000038)  returns 0x00 (0000ms, 0982ms total)
T23FC 002:236 JLINK_WriteReg(XPSR, 0x01000000)  returns 0x00 (0000ms, 0982ms total)
T23FC 002:236 JLINK_WriteReg(MSP, 0x20000800)  returns 0x00 (0000ms, 0982ms total)
T23FC 002:236 JLINK_WriteReg(PSP, 0x20000800)  returns 0x00 (0000ms, 0982ms total)
T23FC 002:236 JLINK_WriteReg(CFBP, 0x00000000)  returns 0x00 (0000ms, 0982ms total)
T23FC 002:236 JLINK_SetBPEx(Addr = 0x20000000, Type = 0xFFFFFFF2) -- CPU_ReadMem(2 bytes @ 0x20000000)  returns 0x00000001 (0001ms, 0983ms total)
T23FC 002:237 JLINK_Go() -- CPU_WriteMem(2 bytes @ 0x20000000) -- CPU_ReadMem(4 bytes @ 0xE0001000) -- CPU_WriteMem(4 bytes @ 0xE0002008) -- CPU_WriteMem(4 bytes @ 0xE000200C) -- CPU_WriteMem(4 bytes @ 0xE0002010) -- CPU_WriteMem(4 bytes @ 0xE0002014) -- CPU_WriteMem(4 bytes @ 0xE0002018) -- CPU_WriteMem(4 bytes @ 0xE000201C) -- CPU_WriteMem(4 bytes @ 0xE0001004) (0008ms, 0991ms total)
T23FC 002:245 JLINK_IsHalted() -- CPU_ReadMem(2 bytes @ 0x20000000)  returns TRUE (0006ms, 0997ms total)
T23FC 002:251 JLINK_ReadReg(R15 (PC))  returns 0x20000000 (0000ms, 0991ms total)
T23FC 002:251 JLINK_ClrBPEx(BPHandle = 0x00000001)  returns 0x00 (0000ms, 0991ms total)
T23FC 002:251 JLINK_ReadReg(R0)  returns 0x00000000 (0000ms, 0991ms total)
T23FC 002:252 JLINK_WriteReg(R0, 0x08000000)  returns 0x00 (0000ms, 0991ms total)
T23FC 002:252 JLINK_WriteReg(R1, 0x007A1200)  returns 0x00 (0000ms, 0991ms total)
T23FC 002:252 JLINK_WriteReg(R2, 0x00000001)  returns 0x00 (0000ms, 0991ms total)
T23FC 002:252 JLINK_WriteReg(R3, 0x00000000)  returns 0x00 (0000ms, 0991ms total)
T23FC 002:252 JLINK_WriteReg(R4, 0x00000000)  returns 0x00 (0000ms, 0991ms total)
T23FC 002:252 JLINK_WriteReg(R5, 0x00000000)  returns 0x00 (0000ms, 0991ms total)
T23FC 002:252 JLINK_WriteReg(R6, 0x00000000)  returns 0x00 (0000ms, 0991ms total)
T23FC 002:252 JLINK_WriteReg(R7, 0x00000000)  returns 0x00 (0000ms, 0991ms total)
T23FC 002:252 JLINK_WriteReg(R8, 0x00000000)  returns 0x00 (0000ms, 0991ms total)
T23FC 002:252 JLINK_WriteReg(R9, 0x20000160)  returns 0x00 (0000ms, 0991ms total)
T23FC 002:252 JLINK_WriteReg(R10, 0x00000000)  returns 0x00 (0000ms, 0991ms total)
T23FC 002:252 JLINK_WriteReg(R11, 0x00000000)  returns 0x00 (0000ms, 0991ms total)
T23FC 002:252 JLINK_WriteReg(R12, 0x00000000)  returns 0x00 (0000ms, 0991ms total)
T23FC 002:252 JLINK_WriteReg(R13 (SP), 0x20000800)  returns 0x00 (0000ms, 0991ms total)
T23FC 002:252 JLINK_WriteReg(R14, 0x20000001)  returns 0x00 (0000ms, 0991ms total)
T23FC 002:252 JLINK_WriteReg(R15 (PC), 0x2000007C)  returns 0x00 (0000ms, 0991ms total)
T23FC 002:252 JLINK_WriteReg(XPSR, 0x01000000)  returns 0x00 (0000ms, 0991ms total)
T23FC 002:252 JLINK_WriteReg(MSP, 0x20000800)  returns 0x00 (0000ms, 0991ms total)
T23FC 002:252 JLINK_WriteReg(PSP, 0x20000800)  returns 0x00 (0000ms, 0991ms total)
T23FC 002:252 JLINK_WriteReg(CFBP, 0x00000000)  returns 0x00 (0000ms, 0991ms total)
T23FC 002:252 JLINK_SetBPEx(Addr = 0x20000000, Type = 0xFFFFFFF2)  returns 0x00000002 (0000ms, 0991ms total)
T23FC 002:252 JLINK_Go() -- CPU_ReadMem(4 bytes @ 0xE0001000) (0003ms, 0994ms total)
T23FC 002:255 JLINK_IsHalted()  returns FALSE (0001ms, 0995ms total)
T23FC 002:332 JLINK_IsHalted() -- CPU_ReadMem(2 bytes @ 0x20000000)  returns TRUE (0004ms, 0998ms total)
T23FC 002:336 JLINK_ReadReg(R15 (PC))  returns 0x20000000 (0000ms, 0994ms total)
T23FC 002:336 JLINK_ClrBPEx(BPHandle = 0x00000002)  returns 0x00 (0000ms, 0994ms total)
T23FC 002:336 JLINK_ReadReg(R0)  returns 0x00000000 (0000ms, 0994ms total)
T23FC 002:388 JLINK_WriteReg(R0, 0x00000001)  returns 0x00 (0000ms, 0994ms total)
T23FC 002:388 JLINK_WriteReg(R1, 0x007A1200)  returns 0x00 (0000ms, 0994ms total)
T23FC 002:388 JLINK_WriteReg(R2, 0x00000001)  returns 0x00 (0000ms, 0994ms total)
T23FC 002:388 JLINK_WriteReg(R3, 0x00000000)  returns 0x00 (0000ms, 0994ms total)
T23FC 002:388 JLINK_WriteReg(R4, 0x00000000)  returns 0x00 (0000ms, 0994ms total)
T23FC 002:388 JLINK_WriteReg(R5, 0x00000000)  returns 0x00 (0000ms, 0994ms total)
T23FC 002:388 JLINK_WriteReg(R6, 0x00000000)  returns 0x00 (0000ms, 0994ms total)
T23FC 002:388 JLINK_WriteReg(R7, 0x00000000)  returns 0x00 (0000ms, 0994ms total)
T23FC 002:388 JLINK_WriteReg(R8, 0x00000000)  returns 0x00 (0000ms, 0994ms total)
T23FC 002:388 JLINK_WriteReg(R9, 0x20000160)  returns 0x00 (0001ms, 0995ms total)
T23FC 002:389 JLINK_WriteReg(R10, 0x00000000)  returns 0x00 (0000ms, 0995ms total)
T23FC 002:389 JLINK_WriteReg(R11, 0x00000000)  returns 0x00 (0000ms, 0995ms total)
T23FC 002:389 JLINK_WriteReg(R12, 0x00000000)  returns 0x00 (0000ms, 0995ms total)
T23FC 002:389 JLINK_WriteReg(R13 (SP), 0x20000800)  returns 0x00 (0000ms, 0995ms total)
T23FC 002:389 JLINK_WriteReg(R14, 0x20000001)  returns 0x00 (0000ms, 0995ms total)
T23FC 002:389 JLINK_WriteReg(R15 (PC), 0x2000006A)  returns 0x00 (0000ms, 0995ms total)
T23FC 002:389 JLINK_WriteReg(XPSR, 0x01000000)  returns 0x00 (0000ms, 0995ms total)
T23FC 002:389 JLINK_WriteReg(MSP, 0x20000800)  returns 0x00 (0000ms, 0995ms total)
T23FC 002:389 JLINK_WriteReg(PSP, 0x20000800)  returns 0x00 (0000ms, 0995ms total)
T23FC 002:389 JLINK_WriteReg(CFBP, 0x00000000)  returns 0x00 (0000ms, 0995ms total)
T23FC 002:389 JLINK_SetBPEx(Addr = 0x20000000, Type = 0xFFFFFFF2)  returns 0x00000003 (0000ms, 0995ms total)
T23FC 002:389 JLINK_Go() -- CPU_ReadMem(4 bytes @ 0xE0001000) (0003ms, 0998ms total)
T23FC 002:392 JLINK_IsHalted() -- CPU_ReadMem(2 bytes @ 0x20000000)  returns TRUE (0005ms, 1003ms total)
T23FC 002:397 JLINK_ReadReg(R15 (PC))  returns 0x20000000 (0000ms, 0998ms total)
T23FC 002:397 JLINK_ClrBPEx(BPHandle = 0x00000003)  returns 0x00 (0000ms, 0998ms total)
T23FC 002:397 JLINK_ReadReg(R0)  returns 0x00000000 (0000ms, 0998ms total)
T23FC 002:407 JLINK_WriteMem(0x20000000, 0x0164 Bytes, ...) - Data: 00 BE 0A E0 0D 78 2D 06 68 40 08 24 40 00 00 D3 ... -- CPU_WriteMem(356 bytes @ 0x20000000)  returns 0x164 (0005ms, 1003ms total)
T23FC 002:412 JLINK_WriteReg(R0, 0x08000000)  returns 0x00 (0000ms, 1003ms total)
T23FC 002:412 JLINK_WriteReg(R1, 0x007A1200)  returns 0x00 (0000ms, 1003ms total)
T23FC 002:413 JLINK_WriteReg(R2, 0x00000002)  returns 0x00 (0000ms, 1004ms total)
T23FC 002:413 JLINK_WriteReg(R3, 0x00000000)  returns 0x00 (0000ms, 1004ms total)
T23FC 002:413 JLINK_WriteReg(R4, 0x00000000)  returns 0x00 (0000ms, 1004ms total)
T23FC 002:413 JLINK_WriteReg(R5, 0x00000000)  returns 0x00 (0000ms, 1004ms total)
T23FC 002:413 JLINK_WriteReg(R6, 0x00000000)  returns 0x00 (0000ms, 1004ms total)
T23FC 002:413 JLINK_WriteReg(R7, 0x00000000)  returns 0x00 (0000ms, 1004ms total)
T23FC 002:413 JLINK_WriteReg(R8, 0x00000000)  returns 0x00 (0000ms, 1004ms total)
T23FC 002:413 JLINK_WriteReg(R9, 0x20000160)  returns 0x00 (0000ms, 1004ms total)
T23FC 002:413 JLINK_WriteReg(R10, 0x00000000)  returns 0x00 (0000ms, 1004ms total)
T23FC 002:413 JLINK_WriteReg(R11, 0x00000000)  returns 0x00 (0000ms, 1004ms total)
T23FC 002:413 JLINK_WriteReg(R12, 0x00000000)  returns 0x00 (0000ms, 1004ms total)
T23FC 002:413 JLINK_WriteReg(R13 (SP), 0x20000800)  returns 0x00 (0000ms, 1004ms total)
T23FC 002:413 JLINK_WriteReg(R14, 0x20000001)  returns 0x00 (0000ms, 1004ms total)
T23FC 002:413 JLINK_WriteReg(R15 (PC), 0x20000038)  returns 0x00 (0000ms, 1004ms total)
T23FC 002:413 JLINK_WriteReg(XPSR, 0x01000000)  returns 0x00 (0001ms, 1005ms total)
T23FC 002:414 JLINK_WriteReg(MSP, 0x20000800)  returns 0x00 (0000ms, 1005ms total)
T23FC 002:414 JLINK_WriteReg(PSP, 0x20000800)  returns 0x00 (0000ms, 1005ms total)
T23FC 002:414 JLINK_WriteReg(CFBP, 0x00000000)  returns 0x00 (0000ms, 1005ms total)
T23FC 002:414 JLINK_SetBPEx(Addr = 0x20000000, Type = 0xFFFFFFF2) -- CPU_ReadMem(2 bytes @ 0x20000000)  returns 0x00000004 (0001ms, 1006ms total)
T23FC 002:415 JLINK_Go() -- CPU_WriteMem(2 bytes @ 0x20000000) -- CPU_ReadMem(4 bytes @ 0xE0001000) (0003ms, 1009ms total)
T23FC 002:418 JLINK_IsHalted() -- CPU_ReadMem(2 bytes @ 0x20000000)  returns TRUE (0005ms, 1014ms total)
T23FC 002:423 JLINK_ReadReg(R15 (PC))  returns 0x20000000 (0000ms, 1009ms total)
T23FC 002:423 JLINK_ClrBPEx(BPHandle = 0x00000004)  returns 0x00 (0000ms, 1009ms total)
T23FC 002:423 JLINK_ReadReg(R0)  returns 0x00000000 (0000ms, 1009ms total)
T23FC 002:424 JLINK_WriteMem(0x20000164, 0x0400 Bytes, ...) - Data: D0 0C 00 20 ED 26 00 08 FD 3C 00 08 FF 3C 00 08 ... -- CPU_WriteMem(1024 bytes @ 0x20000164)  returns 0x400 (0013ms, 1022ms total)
T23FC 002:437 JLINK_WriteReg(R0, 0x08000000)  returns 0x00 (0000ms, 1022ms total)
T23FC 002:437 JLINK_WriteReg(R1, 0x00000400)  returns 0x00 (0000ms, 1022ms total)
T23FC 002:437 JLINK_WriteReg(R2, 0x20000164)  returns 0x00 (0000ms, 1022ms total)
T23FC 002:437 JLINK_WriteReg(R3, 0x00000000)  returns 0x00 (0000ms, 1022ms total)
T23FC 002:437 JLINK_WriteReg(R4, 0x00000000)  returns 0x00 (0000ms, 1022ms total)
T23FC 002:437 JLINK_WriteReg(R5, 0x00000000)  returns 0x00 (0000ms, 1022ms total)
T23FC 002:437 JLINK_WriteReg(R6, 0x00000000)  returns 0x00 (0000ms, 1022ms total)
T23FC 002:437 JLINK_WriteReg(R7, 0x00000000)  returns 0x00 (0000ms, 1022ms total)
T23FC 002:437 JLINK_WriteReg(R8, 0x00000000)  returns 0x00 (0000ms, 1022ms total)
T23FC 002:437 JLINK_WriteReg(R9, 0x20000160)  returns 0x00 (0000ms, 1022ms total)
T23FC 002:437 JLINK_WriteReg(R10, 0x00000000)  returns 0x00 (0000ms, 1022ms total)
T23FC 002:437 JLINK_WriteReg(R11, 0x00000000)  returns 0x00 (0001ms, 1023ms total)
T23FC 002:438 JLINK_WriteReg(R12, 0x00000000)  returns 0x00 (0000ms, 1023ms total)
T23FC 002:438 JLINK_WriteReg(R13 (SP), 0x20000800)  returns 0x00 (0000ms, 1023ms total)
T23FC 002:438 JLINK_WriteReg(R14, 0x20000001)  returns 0x00 (0000ms, 1023ms total)
T23FC 002:438 JLINK_WriteReg(R15 (PC), 0x200000F4)  returns 0x00 (0000ms, 1023ms total)
T23FC 002:438 JLINK_WriteReg(XPSR, 0x01000000)  returns 0x00 (0000ms, 1023ms total)
T23FC 002:438 JLINK_WriteReg(MSP, 0x20000800)  returns 0x00 (0000ms, 1023ms total)
T23FC 002:438 JLINK_WriteReg(PSP, 0x20000800)  returns 0x00 (0000ms, 1023ms total)
T23FC 002:438 JLINK_WriteReg(CFBP, 0x00000000)  returns 0x00 (0000ms, 1023ms total)
T23FC 002:438 JLINK_SetBPEx(Addr = 0x20000000, Type = 0xFFFFFFF2)  returns 0x00000005 (0000ms, 1023ms total)
T23FC 002:438 JLINK_Go() -- CPU_ReadMem(4 bytes @ 0xE0001000) (0003ms, 1026ms total)
T23FC 002:442 JLINK_IsHalted()  returns FALSE (0000ms, 1027ms total)
T23FC 002:492 JLINK_IsHalted() -- CPU_ReadMem(2 bytes @ 0x20000000)  returns TRUE (0004ms, 1031ms total)
T23FC 002:496 JLINK_ReadReg(R15 (PC))  returns 0x20000000 (0000ms, 1027ms total)
T23FC 002:496 JLINK_ClrBPEx(BPHandle = 0x00000005)  returns 0x00 (0000ms, 1027ms total)
T23FC 002:496 JLINK_ReadReg(R0)  returns 0x00000000 (0000ms, 1027ms total)
T23FC 002:496 JLINK_WriteMem(0x20000164, 0x0400 Bytes, ...) - Data: 01 61 00 E0 41 61 70 47 C1 60 70 47 4F F4 80 32 ... -- CPU_WriteMem(1024 bytes @ 0x20000164)  returns 0x400 (0013ms, 1040ms total)
T23FC 002:509 JLINK_WriteReg(R0, 0x08000400)  returns 0x00 (0000ms, 1040ms total)
T23FC 002:509 JLINK_WriteReg(R1, 0x00000400)  returns 0x00 (0000ms, 1040ms total)
T23FC 002:509 JLINK_WriteReg(R2, 0x20000164)  returns 0x00 (0000ms, 1040ms total)
T23FC 002:509 JLINK_WriteReg(R3, 0x00000000)  returns 0x00 (0000ms, 1040ms total)
T23FC 002:509 JLINK_WriteReg(R4, 0x00000000)  returns 0x00 (0000ms, 1040ms total)
T23FC 002:509 JLINK_WriteReg(R5, 0x00000000)  returns 0x00 (0000ms, 1040ms total)
T23FC 002:509 JLINK_WriteReg(R6, 0x00000000)  returns 0x00 (0000ms, 1040ms total)
T23FC 002:509 JLINK_WriteReg(R7, 0x00000000)  returns 0x00 (0000ms, 1040ms total)
T23FC 002:509 JLINK_WriteReg(R8, 0x00000000)  returns 0x00 (0000ms, 1040ms total)
T23FC 002:509 JLINK_WriteReg(R9, 0x20000160)  returns 0x00 (0000ms, 1040ms total)
T23FC 002:509 JLINK_WriteReg(R10, 0x00000000)  returns 0x00 (0000ms, 1040ms total)
T23FC 002:509 JLINK_WriteReg(R11, 0x00000000)  returns 0x00 (0000ms, 1040ms total)
T23FC 002:509 JLINK_WriteReg(R12, 0x00000000)  returns 0x00 (0000ms, 1040ms total)
T23FC 002:509 JLINK_WriteReg(R13 (SP), 0x20000800)  returns 0x00 (0000ms, 1040ms total)
T23FC 002:509 JLINK_WriteReg(R14, 0x20000001)  returns 0x00 (0000ms, 1040ms total)
T23FC 002:509 JLINK_WriteReg(R15 (PC), 0x200000F4)  returns 0x00 (0000ms, 1040ms total)
T23FC 002:509 JLINK_WriteReg(XPSR, 0x01000000)  returns 0x00 (0000ms, 1040ms total)
T23FC 002:509 JLINK_WriteReg(MSP, 0x20000800)  returns 0x00 (0000ms, 1040ms total)
T23FC 002:509 JLINK_WriteReg(PSP, 0x20000800)  returns 0x00 (0000ms, 1040ms total)
T23FC 002:509 JLINK_WriteReg(CFBP, 0x00000000)  returns 0x00 (0000ms, 1040ms total)
T23FC 002:509 JLINK_SetBPEx(Addr = 0x20000000, Type = 0xFFFFFFF2)  returns 0x00000006 (0000ms, 1040ms total)
T23FC 002:509 JLINK_Go() -- CPU_ReadMem(4 bytes @ 0xE0001000) (0003ms, 1043ms total)
T23FC 002:512 JLINK_IsHalted()  returns FALSE (0001ms, 1044ms total)
T23FC 002:519 JLINK_IsHalted()  returns FALSE (0000ms, 1043ms total)
T23FC 002:520 JLINK_IsHalted()  returns FALSE (0000ms, 1043ms total)
T23FC 002:524 JLINK_IsHalted()  returns FALSE (0000ms, 1043ms total)
T23FC 002:525 JLINK_IsHalted()  returns FALSE (0000ms, 1043ms total)
T23FC 002:526 JLINK_IsHalted()  returns FALSE (0000ms, 1043ms total)
T23FC 002:527 JLINK_IsHalted()  returns FALSE (0000ms, 1043ms total)
T23FC 002:528 JLINK_IsHalted()  returns FALSE (0000ms, 1043ms total)
T23FC 002:529 JLINK_IsHalted()  returns FALSE (0000ms, 1043ms total)
T23FC 002:530 JLINK_IsHalted()  returns FALSE (0000ms, 1043ms total)
T23FC 002:531 JLINK_IsHalted()  returns FALSE (0000ms, 1043ms total)
T23FC 002:532 JLINK_IsHalted()  returns FALSE (0000ms, 1043ms total)
T23FC 002:533 JLINK_IsHalted()  returns FALSE (0000ms, 1043ms total)
T23FC 002:534 JLINK_IsHalted()  returns FALSE (0000ms, 1043ms total)
T23FC 002:535 JLINK_IsHalted()  returns FALSE (0000ms, 1043ms total)
T23FC 002:536 JLINK_IsHalted()  returns FALSE (0000ms, 1043ms total)
T23FC 002:537 JLINK_IsHalted()  returns FALSE (0000ms, 1043ms total)
T23FC 002:538 JLINK_IsHalted()  returns FALSE (0000ms, 1043ms total)
T23FC 002:545 JLINK_IsHalted() -- CPU_ReadMem(2 bytes @ 0x20000000)  returns TRUE (0004ms, 1047ms total)
T23FC 002:549 JLINK_ReadReg(R15 (PC))  returns 0x20000000 (0000ms, 1043ms total)
T23FC 002:549 JLINK_ClrBPEx(BPHandle = 0x00000006)  returns 0x00 (0000ms, 1043ms total)
T23FC 002:549 JLINK_ReadReg(R0)  returns 0x00000000 (0000ms, 1043ms total)
T23FC 002:550 JLINK_WriteMem(0x20000164, 0x0400 Bytes, ...) - Data: 02 43 2D 4B 5A 61 04 E0 2B 4A 52 69 82 43 2A 4B ... -- CPU_WriteMem(1024 bytes @ 0x20000164)  returns 0x400 (0012ms, 1055ms total)
T23FC 002:562 JLINK_WriteReg(R0, 0x08000800)  returns 0x00 (0000ms, 1055ms total)
T23FC 002:562 JLINK_WriteReg(R1, 0x00000400)  returns 0x00 (0000ms, 1055ms total)
T23FC 002:562 JLINK_WriteReg(R2, 0x20000164)  returns 0x00 (0000ms, 1055ms total)
T23FC 002:562 JLINK_WriteReg(R3, 0x00000000)  returns 0x00 (0000ms, 1055ms total)
T23FC 002:562 JLINK_WriteReg(R4, 0x00000000)  returns 0x00 (0000ms, 1055ms total)
T23FC 002:562 JLINK_WriteReg(R5, 0x00000000)  returns 0x00 (0000ms, 1055ms total)
T23FC 002:562 JLINK_WriteReg(R6, 0x00000000)  returns 0x00 (0000ms, 1055ms total)
T23FC 002:562 JLINK_WriteReg(R7, 0x00000000)  returns 0x00 (0000ms, 1055ms total)
T23FC 002:562 JLINK_WriteReg(R8, 0x00000000)  returns 0x00 (0000ms, 1055ms total)
T23FC 002:562 JLINK_WriteReg(R9, 0x20000160)  returns 0x00 (0000ms, 1055ms total)
T23FC 002:562 JLINK_WriteReg(R10, 0x00000000)  returns 0x00 (0000ms, 1055ms total)
T23FC 002:563 JLINK_WriteReg(R11, 0x00000000)  returns 0x00 (0000ms, 1056ms total)
T23FC 002:563 JLINK_WriteReg(R12, 0x00000000)  returns 0x00 (0000ms, 1056ms total)
T23FC 002:563 JLINK_WriteReg(R13 (SP), 0x20000800)  returns 0x00 (0000ms, 1056ms total)
T23FC 002:563 JLINK_WriteReg(R14, 0x20000001)  returns 0x00 (0000ms, 1056ms total)
T23FC 002:563 JLINK_WriteReg(R15 (PC), 0x200000F4)  returns 0x00 (0000ms, 1056ms total)
T23FC 002:563 JLINK_WriteReg(XPSR, 0x01000000)  returns 0x00 (0000ms, 1056ms total)
T23FC 002:563 JLINK_WriteReg(MSP, 0x20000800)  returns 0x00 (0000ms, 1056ms total)
T23FC 002:563 JLINK_WriteReg(PSP, 0x20000800)  returns 0x00 (0000ms, 1056ms total)
T23FC 002:563 JLINK_WriteReg(CFBP, 0x00000000)  returns 0x00 (0000ms, 1056ms total)
T23FC 002:563 JLINK_SetBPEx(Addr = 0x20000000, Type = 0xFFFFFFF2)  returns 0x00000007 (0000ms, 1056ms total)
T23FC 002:563 JLINK_Go() -- CPU_ReadMem(4 bytes @ 0xE0001000) (0003ms, 1059ms total)
T23FC 002:566 JLINK_IsHalted()  returns FALSE (0000ms, 1059ms total)
T23FC 002:576 JLINK_IsHalted()  returns FALSE (0000ms, 1059ms total)
T23FC 002:577 JLINK_IsHalted()  returns FALSE (0000ms, 1059ms total)
T23FC 002:578 JLINK_IsHalted()  returns FALSE (0000ms, 1059ms total)
T23FC 002:579 JLINK_IsHalted()  returns FALSE (0000ms, 1059ms total)
T23FC 002:580 JLINK_IsHalted()  returns FALSE (0000ms, 1059ms total)
T23FC 002:581 JLINK_IsHalted()  returns FALSE (0000ms, 1059ms total)
T23FC 002:582 JLINK_IsHalted()  returns FALSE (0000ms, 1059ms total)
T23FC 002:583 JLINK_IsHalted()  returns FALSE (0000ms, 1059ms total)
T23FC 002:591 JLINK_IsHalted()  returns FALSE (0000ms, 1059ms total)
T23FC 002:592 JLINK_IsHalted()  returns FALSE (0000ms, 1059ms total)
T23FC 002:593 JLINK_IsHalted()  returns FALSE (0000ms, 1059ms total)
T23FC 002:594 JLINK_IsHalted()  returns FALSE (0000ms, 1059ms total)
T23FC 002:595 JLINK_IsHalted()  returns FALSE (0000ms, 1059ms total)
T23FC 002:596 JLINK_IsHalted() -- CPU_ReadMem(2 bytes @ 0x20000000)  returns TRUE (0004ms, 1063ms total)
T23FC 002:600 JLINK_ReadReg(R15 (PC))  returns 0x20000000 (0000ms, 1059ms total)
T23FC 002:600 JLINK_ClrBPEx(BPHandle = 0x00000007)  returns 0x00 (0000ms, 1059ms total)
T23FC 002:600 JLINK_ReadReg(R0)  returns 0x00000000 (0000ms, 1059ms total)
T23FC 002:601 JLINK_WriteMem(0x20000164, 0x0400 Bytes, ...) - Data: 8D 89 06 EA 85 05 2B 43 CD 89 06 EA 85 05 2B 43 ... -- CPU_WriteMem(1024 bytes @ 0x20000164)  returns 0x400 (0012ms, 1071ms total)
T23FC 002:613 JLINK_WriteReg(R0, 0x08000C00)  returns 0x00 (0000ms, 1071ms total)
T23FC 002:613 JLINK_WriteReg(R1, 0x00000400)  returns 0x00 (0000ms, 1071ms total)
T23FC 002:613 JLINK_WriteReg(R2, 0x20000164)  returns 0x00 (0000ms, 1071ms total)
T23FC 002:613 JLINK_WriteReg(R3, 0x00000000)  returns 0x00 (0000ms, 1071ms total)
T23FC 002:613 JLINK_WriteReg(R4, 0x00000000)  returns 0x00 (0000ms, 1071ms total)
T23FC 002:613 JLINK_WriteReg(R5, 0x00000000)  returns 0x00 (0000ms, 1071ms total)
T23FC 002:613 JLINK_WriteReg(R6, 0x00000000)  returns 0x00 (0000ms, 1071ms total)
T23FC 002:613 JLINK_WriteReg(R7, 0x00000000)  returns 0x00 (0000ms, 1071ms total)
T23FC 002:613 JLINK_WriteReg(R8, 0x00000000)  returns 0x00 (0000ms, 1071ms total)
T23FC 002:613 JLINK_WriteReg(R9, 0x20000160)  returns 0x00 (0000ms, 1071ms total)
T23FC 002:613 JLINK_WriteReg(R10, 0x00000000)  returns 0x00 (0000ms, 1071ms total)
T23FC 002:613 JLINK_WriteReg(R11, 0x00000000)  returns 0x00 (0000ms, 1071ms total)
T23FC 002:613 JLINK_WriteReg(R12, 0x00000000)  returns 0x00 (0000ms, 1071ms total)
T23FC 002:614 JLINK_WriteReg(R13 (SP), 0x20000800)  returns 0x00 (0000ms, 1071ms total)
T23FC 002:614 JLINK_WriteReg(R14, 0x20000001)  returns 0x00 (0000ms, 1071ms total)
T23FC 002:614 JLINK_WriteReg(R15 (PC), 0x200000F4)  returns 0x00 (0000ms, 1071ms total)
T23FC 002:614 JLINK_WriteReg(XPSR, 0x01000000)  returns 0x00 (0000ms, 1071ms total)
T23FC 002:614 JLINK_WriteReg(MSP, 0x20000800)  returns 0x00 (0000ms, 1071ms total)
T23FC 002:614 JLINK_WriteReg(PSP, 0x20000800)  returns 0x00 (0000ms, 1071ms total)
T23FC 002:614 JLINK_WriteReg(CFBP, 0x00000000)  returns 0x00 (0000ms, 1071ms total)
T23FC 002:614 JLINK_SetBPEx(Addr = 0x20000000, Type = 0xFFFFFFF2)  returns 0x00000008 (0000ms, 1071ms total)
T23FC 002:614 JLINK_Go() -- CPU_ReadMem(4 bytes @ 0xE0001000) (0003ms, 1074ms total)
T23FC 002:617 JLINK_IsHalted()  returns FALSE (0001ms, 1075ms total)
T23FC 002:623 JLINK_IsHalted()  returns FALSE (0000ms, 1074ms total)
T23FC 002:624 JLINK_IsHalted()  returns FALSE (0001ms, 1075ms total)
T23FC 002:626 JLINK_IsHalted()  returns FALSE (0000ms, 1074ms total)
T23FC 002:627 JLINK_IsHalted()  returns FALSE (0000ms, 1074ms total)
T23FC 002:628 JLINK_IsHalted()  returns FALSE (0000ms, 1074ms total)
T23FC 002:629 JLINK_IsHalted()  returns FALSE (0001ms, 1075ms total)
T23FC 002:633 JLINK_IsHalted()  returns FALSE (0000ms, 1074ms total)
T23FC 002:634 JLINK_IsHalted()  returns FALSE (0000ms, 1074ms total)
T23FC 002:635 JLINK_IsHalted()  returns FALSE (0000ms, 1074ms total)
T23FC 002:636 JLINK_IsHalted()  returns FALSE (0000ms, 1074ms total)
T23FC 002:637 JLINK_IsHalted()  returns FALSE (0000ms, 1074ms total)
T23FC 002:638 JLINK_IsHalted()  returns FALSE (0000ms, 1074ms total)
T23FC 002:639 JLINK_IsHalted()  returns FALSE (0000ms, 1074ms total)
T23FC 002:640 JLINK_IsHalted()  returns FALSE (0000ms, 1074ms total)
T23FC 002:641 JLINK_IsHalted()  returns FALSE (0000ms, 1074ms total)
T23FC 002:642 JLINK_IsHalted()  returns FALSE (0000ms, 1074ms total)
T23FC 002:643 JLINK_IsHalted()  returns FALSE (0000ms, 1074ms total)
T23FC 002:644 JLINK_IsHalted()  returns FALSE (0000ms, 1074ms total)
T23FC 002:645 JLINK_IsHalted()  returns FALSE (0001ms, 1075ms total)
T23FC 002:649 JLINK_IsHalted() -- CPU_ReadMem(2 bytes @ 0x20000000)  returns TRUE (0004ms, 1078ms total)
T23FC 002:653 JLINK_ReadReg(R15 (PC))  returns 0x20000000 (0000ms, 1074ms total)
T23FC 002:653 JLINK_ClrBPEx(BPHandle = 0x00000008)  returns 0x00 (0000ms, 1074ms total)
T23FC 002:653 JLINK_ReadReg(R0)  returns 0x00000000 (0000ms, 1074ms total)
T23FC 002:654 JLINK_WriteMem(0x20000164, 0x0400 Bytes, ...) - Data: FF F7 53 FF E1 88 28 46 FF F7 42 FF 17 E0 20 88 ... -- CPU_WriteMem(1024 bytes @ 0x20000164)  returns 0x400 (0012ms, 1086ms total)
T23FC 002:666 JLINK_WriteReg(R0, 0x08001000)  returns 0x00 (0000ms, 1086ms total)
T23FC 002:666 JLINK_WriteReg(R1, 0x00000400)  returns 0x00 (0000ms, 1086ms total)
T23FC 002:666 JLINK_WriteReg(R2, 0x20000164)  returns 0x00 (0000ms, 1086ms total)
T23FC 002:666 JLINK_WriteReg(R3, 0x00000000)  returns 0x00 (0000ms, 1086ms total)
T23FC 002:667 JLINK_WriteReg(R4, 0x00000000)  returns 0x00 (0000ms, 1086ms total)
T23FC 002:667 JLINK_WriteReg(R5, 0x00000000)  returns 0x00 (0000ms, 1086ms total)
T23FC 002:667 JLINK_WriteReg(R6, 0x00000000)  returns 0x00 (0000ms, 1086ms total)
T23FC 002:667 JLINK_WriteReg(R7, 0x00000000)  returns 0x00 (0000ms, 1086ms total)
T23FC 002:667 JLINK_WriteReg(R8, 0x00000000)  returns 0x00 (0000ms, 1086ms total)
T23FC 002:667 JLINK_WriteReg(R9, 0x20000160)  returns 0x00 (0000ms, 1086ms total)
T23FC 002:667 JLINK_WriteReg(R10, 0x00000000)  returns 0x00 (0000ms, 1086ms total)
T23FC 002:667 JLINK_WriteReg(R11, 0x00000000)  returns 0x00 (0000ms, 1086ms total)
T23FC 002:667 JLINK_WriteReg(R12, 0x00000000)  returns 0x00 (0000ms, 1086ms total)
T23FC 002:667 JLINK_WriteReg(R13 (SP), 0x20000800)  returns 0x00 (0000ms, 1086ms total)
T23FC 002:667 JLINK_WriteReg(R14, 0x20000001)  returns 0x00 (0000ms, 1086ms total)
T23FC 002:667 JLINK_WriteReg(R15 (PC), 0x200000F4)  returns 0x00 (0000ms, 1086ms total)
T23FC 002:667 JLINK_WriteReg(XPSR, 0x01000000)  returns 0x00 (0000ms, 1086ms total)
T23FC 002:667 JLINK_WriteReg(MSP, 0x20000800)  returns 0x00 (0000ms, 1086ms total)
T23FC 002:667 JLINK_WriteReg(PSP, 0x20000800)  returns 0x00 (0000ms, 1086ms total)
T23FC 002:667 JLINK_WriteReg(CFBP, 0x00000000)  returns 0x00 (0000ms, 1086ms total)
T23FC 002:667 JLINK_SetBPEx(Addr = 0x20000000, Type = 0xFFFFFFF2)  returns 0x00000009 (0000ms, 1086ms total)
T23FC 002:667 JLINK_Go() -- CPU_ReadMem(4 bytes @ 0xE0001000) (0003ms, 1089ms total)
T23FC 002:670 JLINK_IsHalted()  returns FALSE (0001ms, 1090ms total)
T23FC 002:677 JLINK_IsHalted()  returns FALSE (0000ms, 1089ms total)
T23FC 002:678 JLINK_IsHalted()  returns FALSE (0000ms, 1089ms total)
T23FC 002:683 JLINK_IsHalted()  returns FALSE (0000ms, 1089ms total)
T23FC 002:684 JLINK_IsHalted()  returns FALSE (0000ms, 1089ms total)
T23FC 002:685 JLINK_IsHalted()  returns FALSE (0000ms, 1089ms total)
T23FC 002:686 JLINK_IsHalted()  returns FALSE (0000ms, 1089ms total)
T23FC 002:687 JLINK_IsHalted()  returns FALSE (0000ms, 1089ms total)
T23FC 002:688 JLINK_IsHalted()  returns FALSE (0000ms, 1089ms total)
T23FC 002:689 JLINK_IsHalted()  returns FALSE (0000ms, 1089ms total)
T23FC 002:690 JLINK_IsHalted()  returns FALSE (0000ms, 1089ms total)
T23FC 002:691 JLINK_IsHalted()  returns FALSE (0000ms, 1089ms total)
T23FC 002:692 JLINK_IsHalted()  returns FALSE (0000ms, 1089ms total)
T23FC 002:693 JLINK_IsHalted()  returns FALSE (0000ms, 1089ms total)
T23FC 002:699 JLINK_IsHalted()  returns FALSE (0000ms, 1089ms total)
T23FC 002:700 JLINK_IsHalted()  returns FALSE (0000ms, 1089ms total)
T23FC 002:701 JLINK_IsHalted() -- CPU_ReadMem(2 bytes @ 0x20000000)  returns TRUE (0004ms, 1093ms total)
T23FC 002:705 JLINK_ReadReg(R15 (PC))  returns 0x20000000 (0000ms, 1089ms total)
T23FC 002:705 JLINK_ClrBPEx(BPHandle = 0x00000009)  returns 0x00 (0000ms, 1089ms total)
T23FC 002:705 JLINK_ReadReg(R0)  returns 0x00000000 (0000ms, 1089ms total)
T23FC 002:705 JLINK_WriteMem(0x20000164, 0x0400 Bytes, ...) - Data: 11 43 01 83 70 47 0A 46 00 21 01 8B 4F F6 FF 33 ... -- CPU_WriteMem(1024 bytes @ 0x20000164)  returns 0x400 (0013ms, 1102ms total)
T23FC 002:718 JLINK_WriteReg(R0, 0x08001400)  returns 0x00 (0000ms, 1102ms total)
T23FC 002:718 JLINK_WriteReg(R1, 0x00000400)  returns 0x00 (0000ms, 1102ms total)
T23FC 002:718 JLINK_WriteReg(R2, 0x20000164)  returns 0x00 (0000ms, 1102ms total)
T23FC 002:718 JLINK_WriteReg(R3, 0x00000000)  returns 0x00 (0000ms, 1102ms total)
T23FC 002:718 JLINK_WriteReg(R4, 0x00000000)  returns 0x00 (0000ms, 1102ms total)
T23FC 002:718 JLINK_WriteReg(R5, 0x00000000)  returns 0x00 (0000ms, 1102ms total)
T23FC 002:718 JLINK_WriteReg(R6, 0x00000000)  returns 0x00 (0000ms, 1102ms total)
T23FC 002:718 JLINK_WriteReg(R7, 0x00000000)  returns 0x00 (0000ms, 1102ms total)
T23FC 002:718 JLINK_WriteReg(R8, 0x00000000)  returns 0x00 (0000ms, 1102ms total)
T23FC 002:718 JLINK_WriteReg(R9, 0x20000160)  returns 0x00 (0000ms, 1102ms total)
T23FC 002:718 JLINK_WriteReg(R10, 0x00000000)  returns 0x00 (0000ms, 1102ms total)
T23FC 002:718 JLINK_WriteReg(R11, 0x00000000)  returns 0x00 (0000ms, 1102ms total)
T23FC 002:718 JLINK_WriteReg(R12, 0x00000000)  returns 0x00 (0000ms, 1102ms total)
T23FC 002:718 JLINK_WriteReg(R13 (SP), 0x20000800)  returns 0x00 (0000ms, 1102ms total)
T23FC 002:718 JLINK_WriteReg(R14, 0x20000001)  returns 0x00 (0000ms, 1102ms total)
T23FC 002:718 JLINK_WriteReg(R15 (PC), 0x200000F4)  returns 0x00 (0000ms, 1102ms total)
T23FC 002:718 JLINK_WriteReg(XPSR, 0x01000000)  returns 0x00 (0000ms, 1102ms total)
T23FC 002:718 JLINK_WriteReg(MSP, 0x20000800)  returns 0x00 (0000ms, 1102ms total)
T23FC 002:718 JLINK_WriteReg(PSP, 0x20000800)  returns 0x00 (0000ms, 1102ms total)
T23FC 002:718 JLINK_WriteReg(CFBP, 0x00000000)  returns 0x00 (0000ms, 1102ms total)
T23FC 002:718 JLINK_SetBPEx(Addr = 0x20000000, Type = 0xFFFFFFF2)  returns 0x0000000A (0000ms, 1102ms total)
T23FC 002:718 JLINK_Go() -- CPU_ReadMem(4 bytes @ 0xE0001000) (0003ms, 1105ms total)
T23FC 002:721 JLINK_IsHalted()  returns FALSE (0001ms, 1106ms total)
T23FC 002:732 JLINK_IsHalted()  returns FALSE (0000ms, 1105ms total)
T23FC 002:733 JLINK_IsHalted()  returns FALSE (0000ms, 1105ms total)
T23FC 002:734 JLINK_IsHalted()  returns FALSE (0000ms, 1105ms total)
T23FC 002:735 JLINK_IsHalted()  returns FALSE (0000ms, 1105ms total)
T23FC 002:736 JLINK_IsHalted()  returns FALSE (0000ms, 1105ms total)
T23FC 002:737 JLINK_IsHalted()  returns FALSE (0000ms, 1105ms total)
T23FC 002:738 JLINK_IsHalted()  returns FALSE (0000ms, 1105ms total)
T23FC 002:739 JLINK_IsHalted()  returns FALSE (0000ms, 1105ms total)
T23FC 002:740 JLINK_IsHalted()  returns FALSE (0000ms, 1105ms total)
T23FC 002:741 JLINK_IsHalted()  returns FALSE (0000ms, 1105ms total)
T23FC 002:742 JLINK_IsHalted()  returns FALSE (0001ms, 1106ms total)
T23FC 002:745 JLINK_IsHalted()  returns FALSE (0000ms, 1105ms total)
T23FC 002:746 JLINK_IsHalted()  returns FALSE (0000ms, 1105ms total)
T23FC 002:747 JLINK_IsHalted()  returns FALSE (0000ms, 1105ms total)
T23FC 002:748 JLINK_IsHalted()  returns FALSE (0000ms, 1105ms total)
T23FC 002:749 JLINK_IsHalted()  returns FALSE (0000ms, 1105ms total)
T23FC 002:750 JLINK_IsHalted()  returns FALSE (0000ms, 1105ms total)
T23FC 002:751 JLINK_IsHalted()  returns FALSE (0000ms, 1105ms total)
T23FC 002:752 JLINK_IsHalted() -- CPU_ReadMem(2 bytes @ 0x20000000)  returns TRUE (0004ms, 1109ms total)
T23FC 002:756 JLINK_ReadReg(R15 (PC))  returns 0x20000000 (0000ms, 1105ms total)
T23FC 002:756 JLINK_ClrBPEx(BPHandle = 0x0000000A)  returns 0x00 (0000ms, 1105ms total)
T23FC 002:756 JLINK_ReadReg(R0)  returns 0x00000000 (0000ms, 1105ms total)
T23FC 002:757 JLINK_WriteMem(0x20000164, 0x0400 Bytes, ...) - Data: 00 EB 0A 10 31 68 89 00 B0 FB F1 F8 64 20 B8 FB ... -- CPU_WriteMem(1024 bytes @ 0x20000164)  returns 0x400 (0012ms, 1117ms total)
T23FC 002:769 JLINK_WriteReg(R0, 0x08001800)  returns 0x00 (0000ms, 1117ms total)
T23FC 002:769 JLINK_WriteReg(R1, 0x00000400)  returns 0x00 (0000ms, 1117ms total)
T23FC 002:769 JLINK_WriteReg(R2, 0x20000164)  returns 0x00 (0000ms, 1117ms total)
T23FC 002:769 JLINK_WriteReg(R3, 0x00000000)  returns 0x00 (0000ms, 1117ms total)
T23FC 002:769 JLINK_WriteReg(R4, 0x00000000)  returns 0x00 (0000ms, 1117ms total)
T23FC 002:769 JLINK_WriteReg(R5, 0x00000000)  returns 0x00 (0000ms, 1117ms total)
T23FC 002:769 JLINK_WriteReg(R6, 0x00000000)  returns 0x00 (0000ms, 1117ms total)
T23FC 002:769 JLINK_WriteReg(R7, 0x00000000)  returns 0x00 (0000ms, 1117ms total)
T23FC 002:769 JLINK_WriteReg(R8, 0x00000000)  returns 0x00 (0000ms, 1117ms total)
T23FC 002:769 JLINK_WriteReg(R9, 0x20000160)  returns 0x00 (0000ms, 1117ms total)
T23FC 002:769 JLINK_WriteReg(R10, 0x00000000)  returns 0x00 (0000ms, 1117ms total)
T23FC 002:769 JLINK_WriteReg(R11, 0x00000000)  returns 0x00 (0000ms, 1117ms total)
T23FC 002:769 JLINK_WriteReg(R12, 0x00000000)  returns 0x00 (0000ms, 1117ms total)
T23FC 002:769 JLINK_WriteReg(R13 (SP), 0x20000800)  returns 0x00 (0000ms, 1117ms total)
T23FC 002:769 JLINK_WriteReg(R14, 0x20000001)  returns 0x00 (0000ms, 1117ms total)
T23FC 002:769 JLINK_WriteReg(R15 (PC), 0x200000F4)  returns 0x00 (0000ms, 1117ms total)
T23FC 002:769 JLINK_WriteReg(XPSR, 0x01000000)  returns 0x00 (0000ms, 1117ms total)
T23FC 002:769 JLINK_WriteReg(MSP, 0x20000800)  returns 0x00 (0000ms, 1117ms total)
T23FC 002:769 JLINK_WriteReg(PSP, 0x20000800)  returns 0x00 (0000ms, 1117ms total)
T23FC 002:769 JLINK_WriteReg(CFBP, 0x00000000)  returns 0x00 (0000ms, 1117ms total)
T23FC 002:769 JLINK_SetBPEx(Addr = 0x20000000, Type = 0xFFFFFFF2)  returns 0x0000000B (0000ms, 1117ms total)
T23FC 002:769 JLINK_Go() -- CPU_ReadMem(4 bytes @ 0xE0001000) (0004ms, 1121ms total)
T23FC 002:773 JLINK_IsHalted()  returns FALSE (0001ms, 1122ms total)
T23FC 002:781 JLINK_IsHalted()  returns FALSE (0000ms, 1121ms total)
T23FC 002:782 JLINK_IsHalted()  returns FALSE (0000ms, 1121ms total)
T23FC 002:783 JLINK_IsHalted()  returns FALSE (0000ms, 1121ms total)
T23FC 002:784 JLINK_IsHalted()  returns FALSE (0000ms, 1121ms total)
T23FC 002:785 JLINK_IsHalted()  returns FALSE (0001ms, 1122ms total)
T23FC 002:794 JLINK_IsHalted()  returns FALSE (0000ms, 1121ms total)
T23FC 002:795 JLINK_IsHalted()  returns FALSE (0000ms, 1121ms total)
T23FC 002:796 JLINK_IsHalted()  returns FALSE (0000ms, 1121ms total)
T23FC 002:797 JLINK_IsHalted()  returns FALSE (0000ms, 1121ms total)
T23FC 002:798 JLINK_IsHalted()  returns FALSE (0000ms, 1121ms total)
T23FC 002:799 JLINK_IsHalted()  returns FALSE (0000ms, 1121ms total)
T23FC 002:800 JLINK_IsHalted()  returns FALSE (0000ms, 1121ms total)
T23FC 002:801 JLINK_IsHalted()  returns FALSE (0000ms, 1121ms total)
T23FC 002:802 JLINK_IsHalted()  returns FALSE (0000ms, 1121ms total)
T23FC 002:803 JLINK_IsHalted()  returns FALSE (0000ms, 1121ms total)
T23FC 002:804 JLINK_IsHalted() -- CPU_ReadMem(2 bytes @ 0x20000000)  returns TRUE (0004ms, 1125ms total)
T23FC 002:808 JLINK_ReadReg(R15 (PC))  returns 0x20000000 (0000ms, 1121ms total)
T23FC 002:808 JLINK_ClrBPEx(BPHandle = 0x0000000B)  returns 0x00 (0000ms, 1121ms total)
T23FC 002:808 JLINK_ReadReg(R0)  returns 0x00000000 (0000ms, 1121ms total)
T23FC 002:809 JLINK_WriteMem(0x20000164, 0x0400 Bytes, ...) - Data: 01 20 00 E0 00 20 70 47 81 68 41 F0 04 01 81 60 ... -- CPU_WriteMem(1024 bytes @ 0x20000164)  returns 0x400 (0012ms, 1133ms total)
T23FC 002:821 JLINK_WriteReg(R0, 0x08001C00)  returns 0x00 (0000ms, 1133ms total)
T23FC 002:821 JLINK_WriteReg(R1, 0x00000400)  returns 0x00 (0000ms, 1133ms total)
T23FC 002:821 JLINK_WriteReg(R2, 0x20000164)  returns 0x00 (0000ms, 1133ms total)
T23FC 002:821 JLINK_WriteReg(R3, 0x00000000)  returns 0x00 (0000ms, 1133ms total)
T23FC 002:821 JLINK_WriteReg(R4, 0x00000000)  returns 0x00 (0000ms, 1133ms total)
T23FC 002:821 JLINK_WriteReg(R5, 0x00000000)  returns 0x00 (0000ms, 1133ms total)
T23FC 002:821 JLINK_WriteReg(R6, 0x00000000)  returns 0x00 (0000ms, 1133ms total)
T23FC 002:821 JLINK_WriteReg(R7, 0x00000000)  returns 0x00 (0000ms, 1133ms total)
T23FC 002:821 JLINK_WriteReg(R8, 0x00000000)  returns 0x00 (0000ms, 1133ms total)
T23FC 002:821 JLINK_WriteReg(R9, 0x20000160)  returns 0x00 (0000ms, 1133ms total)
T23FC 002:821 JLINK_WriteReg(R10, 0x00000000)  returns 0x00 (0000ms, 1133ms total)
T23FC 002:821 JLINK_WriteReg(R11, 0x00000000)  returns 0x00 (0000ms, 1133ms total)
T23FC 002:821 JLINK_WriteReg(R12, 0x00000000)  returns 0x00 (0000ms, 1133ms total)
T23FC 002:821 JLINK_WriteReg(R13 (SP), 0x20000800)  returns 0x00 (0001ms, 1134ms total)
T23FC 002:822 JLINK_WriteReg(R14, 0x20000001)  returns 0x00 (0000ms, 1134ms total)
T23FC 002:822 JLINK_WriteReg(R15 (PC), 0x200000F4)  returns 0x00 (0000ms, 1134ms total)
T23FC 002:822 JLINK_WriteReg(XPSR, 0x01000000)  returns 0x00 (0000ms, 1134ms total)
T23FC 002:822 JLINK_WriteReg(MSP, 0x20000800)  returns 0x00 (0000ms, 1134ms total)
T23FC 002:822 JLINK_WriteReg(PSP, 0x20000800)  returns 0x00 (0000ms, 1134ms total)
T23FC 002:822 JLINK_WriteReg(CFBP, 0x00000000)  returns 0x00 (0000ms, 1134ms total)
T23FC 002:822 JLINK_SetBPEx(Addr = 0x20000000, Type = 0xFFFFFFF2)  returns 0x0000000C (0000ms, 1134ms total)
T23FC 002:822 JLINK_Go() -- CPU_ReadMem(4 bytes @ 0xE0001000) (0003ms, 1137ms total)
T23FC 002:825 JLINK_IsHalted()  returns FALSE (0000ms, 1137ms total)
T23FC 002:833 JLINK_IsHalted()  returns FALSE (0001ms, 1138ms total)
T23FC 002:838 JLINK_IsHalted()  returns FALSE (0000ms, 1137ms total)
T23FC 002:839 JLINK_IsHalted()  returns FALSE (0000ms, 1137ms total)
T23FC 002:840 JLINK_IsHalted()  returns FALSE (0000ms, 1137ms total)
T23FC 002:841 JLINK_IsHalted()  returns FALSE (0000ms, 1137ms total)
T23FC 002:842 JLINK_IsHalted()  returns FALSE (0000ms, 1137ms total)
T23FC 002:843 JLINK_IsHalted()  returns FALSE (0000ms, 1137ms total)
T23FC 002:844 JLINK_IsHalted()  returns FALSE (0000ms, 1137ms total)
T23FC 002:845 JLINK_IsHalted()  returns FALSE (0000ms, 1137ms total)
T23FC 002:846 JLINK_IsHalted()  returns FALSE (0000ms, 1137ms total)
T23FC 002:847 JLINK_IsHalted()  returns FALSE (0000ms, 1137ms total)
T23FC 002:848 JLINK_IsHalted()  returns FALSE (0000ms, 1137ms total)
T23FC 002:849 JLINK_IsHalted()  returns FALSE (0000ms, 1137ms total)
T23FC 002:851 JLINK_IsHalted()  returns FALSE (0000ms, 1137ms total)
T23FC 002:852 JLINK_IsHalted()  returns FALSE (0000ms, 1137ms total)
T23FC 002:853 JLINK_IsHalted()  returns FALSE (0000ms, 1137ms total)
T23FC 002:854 JLINK_IsHalted()  returns FALSE (0000ms, 1137ms total)
T23FC 002:855 JLINK_IsHalted()  returns FALSE (0000ms, 1137ms total)
T23FC 002:856 JLINK_IsHalted() -- CPU_ReadMem(2 bytes @ 0x20000000)  returns TRUE (0004ms, 1141ms total)
T23FC 002:860 JLINK_ReadReg(R15 (PC))  returns 0x20000000 (0000ms, 1137ms total)
T23FC 002:860 JLINK_ClrBPEx(BPHandle = 0x0000000C)  returns 0x00 (0000ms, 1137ms total)
T23FC 002:860 JLINK_ReadReg(R0)  returns 0x00000000 (0000ms, 1137ms total)
T23FC 002:861 JLINK_WriteMem(0x20000164, 0x0400 Bytes, ...) - Data: FF F7 DF FF 03 46 52 1E 01 2B 01 D1 00 2A F7 D1 ... -- CPU_WriteMem(1024 bytes @ 0x20000164)  returns 0x400 (0012ms, 1149ms total)
T23FC 002:873 JLINK_WriteReg(R0, 0x08002000)  returns 0x00 (0000ms, 1149ms total)
T23FC 002:873 JLINK_WriteReg(R1, 0x00000400)  returns 0x00 (0000ms, 1149ms total)
T23FC 002:873 JLINK_WriteReg(R2, 0x20000164)  returns 0x00 (0000ms, 1149ms total)
T23FC 002:873 JLINK_WriteReg(R3, 0x00000000)  returns 0x00 (0000ms, 1149ms total)
T23FC 002:873 JLINK_WriteReg(R4, 0x00000000)  returns 0x00 (0000ms, 1149ms total)
T23FC 002:873 JLINK_WriteReg(R5, 0x00000000)  returns 0x00 (0000ms, 1149ms total)
T23FC 002:873 JLINK_WriteReg(R6, 0x00000000)  returns 0x00 (0000ms, 1149ms total)
T23FC 002:873 JLINK_WriteReg(R7, 0x00000000)  returns 0x00 (0000ms, 1149ms total)
T23FC 002:873 JLINK_WriteReg(R8, 0x00000000)  returns 0x00 (0000ms, 1149ms total)
T23FC 002:873 JLINK_WriteReg(R9, 0x20000160)  returns 0x00 (0000ms, 1149ms total)
T23FC 002:873 JLINK_WriteReg(R10, 0x00000000)  returns 0x00 (0000ms, 1149ms total)
T23FC 002:873 JLINK_WriteReg(R11, 0x00000000)  returns 0x00 (0000ms, 1149ms total)
T23FC 002:873 JLINK_WriteReg(R12, 0x00000000)  returns 0x00 (0000ms, 1149ms total)
T23FC 002:873 JLINK_WriteReg(R13 (SP), 0x20000800)  returns 0x00 (0000ms, 1149ms total)
T23FC 002:873 JLINK_WriteReg(R14, 0x20000001)  returns 0x00 (0000ms, 1149ms total)
T23FC 002:873 JLINK_WriteReg(R15 (PC), 0x200000F4)  returns 0x00 (0000ms, 1149ms total)
T23FC 002:873 JLINK_WriteReg(XPSR, 0x01000000)  returns 0x00 (0000ms, 1149ms total)
T23FC 002:873 JLINK_WriteReg(MSP, 0x20000800)  returns 0x00 (0001ms, 1150ms total)
T23FC 002:874 JLINK_WriteReg(PSP, 0x20000800)  returns 0x00 (0000ms, 1150ms total)
T23FC 002:874 JLINK_WriteReg(CFBP, 0x00000000)  returns 0x00 (0000ms, 1150ms total)
T23FC 002:874 JLINK_SetBPEx(Addr = 0x20000000, Type = 0xFFFFFFF2)  returns 0x0000000D (0000ms, 1150ms total)
T23FC 002:874 JLINK_Go() -- CPU_ReadMem(4 bytes @ 0xE0001000) (0003ms, 1153ms total)
T23FC 002:877 JLINK_IsHalted()  returns FALSE (0000ms, 1153ms total)
T23FC 002:881 JLINK_IsHalted()  returns FALSE (0000ms, 1153ms total)
T23FC 002:882 JLINK_IsHalted()  returns FALSE (0001ms, 1154ms total)
T23FC 002:890 JLINK_IsHalted()  returns FALSE (0000ms, 1153ms total)
T23FC 002:891 JLINK_IsHalted()  returns FALSE (0000ms, 1153ms total)
T23FC 002:892 JLINK_IsHalted()  returns FALSE (0000ms, 1153ms total)
T23FC 002:893 JLINK_IsHalted()  returns FALSE (0000ms, 1153ms total)
T23FC 002:894 JLINK_IsHalted()  returns FALSE (0001ms, 1154ms total)
T23FC 002:899 JLINK_IsHalted()  returns FALSE (0000ms, 1153ms total)
T23FC 002:900 JLINK_IsHalted()  returns FALSE (0000ms, 1153ms total)
T23FC 002:901 JLINK_IsHalted()  returns FALSE (0000ms, 1153ms total)
T23FC 002:902 JLINK_IsHalted()  returns FALSE (0000ms, 1153ms total)
T23FC 002:903 JLINK_IsHalted()  returns FALSE (0000ms, 1153ms total)
T23FC 002:904 JLINK_IsHalted()  returns FALSE (0000ms, 1153ms total)
T23FC 002:905 JLINK_IsHalted()  returns FALSE (0000ms, 1153ms total)
T23FC 002:906 JLINK_IsHalted()  returns FALSE (0000ms, 1153ms total)
T23FC 002:907 JLINK_IsHalted()  returns FALSE (0000ms, 1153ms total)
T23FC 002:908 JLINK_IsHalted() -- CPU_ReadMem(2 bytes @ 0x20000000)  returns TRUE (0004ms, 1157ms total)
T23FC 002:912 JLINK_ReadReg(R15 (PC))  returns 0x20000000 (0000ms, 1153ms total)
T23FC 002:912 JLINK_ClrBPEx(BPHandle = 0x0000000D)  returns 0x00 (0000ms, 1153ms total)
T23FC 002:912 JLINK_ReadReg(R0)  returns 0x00000000 (0000ms, 1153ms total)
T23FC 002:913 JLINK_WriteMem(0x20000164, 0x0400 Bytes, ...) - Data: 08 61 20 46 30 BD F0 B5 05 46 0E 46 17 46 04 24 ... -- CPU_WriteMem(1024 bytes @ 0x20000164)  returns 0x400 (0012ms, 1165ms total)
T23FC 002:925 JLINK_WriteReg(R0, 0x08002400)  returns 0x00 (0000ms, 1165ms total)
T23FC 002:925 JLINK_WriteReg(R1, 0x00000400)  returns 0x00 (0000ms, 1165ms total)
T23FC 002:925 JLINK_WriteReg(R2, 0x20000164)  returns 0x00 (0000ms, 1165ms total)
T23FC 002:925 JLINK_WriteReg(R3, 0x00000000)  returns 0x00 (0000ms, 1165ms total)
T23FC 002:925 JLINK_WriteReg(R4, 0x00000000)  returns 0x00 (0000ms, 1165ms total)
T23FC 002:925 JLINK_WriteReg(R5, 0x00000000)  returns 0x00 (0000ms, 1165ms total)
T23FC 002:925 JLINK_WriteReg(R6, 0x00000000)  returns 0x00 (0000ms, 1165ms total)
T23FC 002:925 JLINK_WriteReg(R7, 0x00000000)  returns 0x00 (0000ms, 1165ms total)
T23FC 002:925 JLINK_WriteReg(R8, 0x00000000)  returns 0x00 (0000ms, 1165ms total)
T23FC 002:925 JLINK_WriteReg(R9, 0x20000160)  returns 0x00 (0000ms, 1165ms total)
